
T1F04 002:078 SEGGER J-Link V4.46f Log File (0014ms, 2076ms total)
T1F04 002:078 DLL Compiled: May 10 2012 08:30:05 (0014ms, 2076ms total)
T1F04 002:078 Logging started @ 2016-09-27 20:45 (0014ms, 2076ms total)
T1F04 002:092 JLINK_SetWarnOutHandler(...) (0000ms, 2090ms total)
T1F04 002:093 JLINK_OpenEx(...)
Firmware: J-Link ARM V8 compiled Nov 14 2012 22:34:52
Hardware: V8.00
S/N: 17935099
Feature(s): RDI,FlashDL,FlashBP,JFlash  returns O.K. (1103ms, 2091ms total)
T1F04 003:196 JLINK_SetErrorOutHandler(...) (0000ms, 3194ms total)
T1F04 003:197 JLINK_ExecCommand("ProjectFile = "H:\太阳能最大功率点追踪自动收费系统\大创太阳能项目\项目程序\各模块测试阶段\未搞定\红外对管\PROJECT\JLinkSettings.ini"", ...)  returns 0x00 (0001ms, 3194ms total)
T1F04 003:226 JLINK_ExecCommand("Device = STM32F103ZE", ...)
                JLINK_ExecCommand("map ram 0x20000000 - 0x2000FFFF", ...)  returns 0x00 (0000ms, 0001ms total)
                JLINK_AddMirrorAreaEx(Addr = 0x00000000, Size = 0x00000000) (0000ms, 0001ms total)
              Device "STM32F103ZE" selected (512 KB flash, 64 KB RAM).  returns 0x00 (0022ms, 3196ms total)
T1F04 003:248 JLINK_ExecCommand("DisableConnectionTimeout", ...)  returns 0x00 (0000ms, 3218ms total)
T1F04 003:248 JLINK_TIF_Select(JLINKARM_TIF_SWD)  returns 0x00 (0001ms, 3218ms total)
T1F04 003:249 JLINK_SetSpeed(2000) (0001ms, 3219ms total)
T1F04 003:250 JLINK_GetHardwareVersion()  returns 0x13880 (0000ms, 3220ms total)
T1F04 003:250 JLINK_GetDLLVersion()  returns 44606 (0000ms, 3220ms total)
T1F04 003:250 JLINK_GetFirmwareString(...) (0000ms, 3220ms total)
T1F04 003:295 JLINK_GetDLLVersion()  returns 44606 (0001ms, 3220ms total)
T1F04 003:296 JLINK_GetCompileDateTime() (0000ms, 3221ms total)
T1F04 003:310 JLINK_GetFirmwareString(...) (0000ms, 3221ms total)
T1F04 003:334 JLINK_GetHardwareVersion()  returns 0x13880 (0000ms, 3221ms total)
T1F04 003:429 JLINK_GetId() >0x108 TIF>Found SWD-DP with ID 0x1BA01477 >0x35 TIF> >0x35 TIF> >0x33 TIF> >0x35 TIF> >0x35 TIF> >0x35 TIF> >0x33 TIF> >0x33 TIF> >0x35 TIF> >0x33 TIF> >0x33 TIF> >0x108 TIF>Found SWD-DP with ID 0x1BA01477 >0x33 TIF> >0x35 TIF> >0x35 TIF> >0x33 TIF> >0x33 TIF> >0x35 TIF> >0x33 TIF> >0x33 TIF> >0x33 TIF> >0x33 TIF> >0x33 TIF> >0x35 TIF> >0x33 TIF> >0x33 TIF> >0x35 TIF> >0x33 TIF> >0x33 TIF> >0x35 TIF> >0x33 TIF> >0x33 TIF> >0x35 TIF> >0x35 TIF> >0x35 TIF> >0x33 TIF> >0x33 TIF>
 >0x35 TIF> >0x35 TIF> >0x35 TIF> >0x33 TIF> >0x33 TIF> >0x33 TIF>TPIU fitted.ETM fitted. >0x35 TIF> >0x33 TIF> >0x33 TIF> >0x35 TIF> >0x33 TIF> >0x33 TIF>FPUnit: 6 code (BP) slots and 2 literal slots >0x35 TIF> >0x33 TIF> >0x33 TIF> >0x35 TIF> >0x35 TIF> >0x35 TIF> >0x33 TIF> >0x33 TIF> >0x35 TIF> >0x33 TIF> >0x33 TIF> >0x35 TIF> >0x33 TIF> >0x33 TIF>Found Cortex-M3 r1p1, Little endian. >0x33 TIF>  returns 0x1BA01477 (0148ms, 3221ms total)
T1F04 003:577 JLINK_GetDeviceFamily()  returns 3 (0000ms, 3369ms total)
T1F04 003:598 JLINK_ReadMem (0xE00FFFF0, 0x0010 Bytes, ...) -- CPU is running -- CPU_ReadMem(16 bytes @ 0xE00FFFF0) -- Data:  0D 00 00 00 10 00 00 00 05 00 00 00 B1 00 00 00  returns 0x00 (0002ms, 3369ms total)
T1F04 003:600 JLINK_ReadMem (0xE00FFFD0, 0x0020 Bytes, ...) -- CPU is running -- CPU_ReadMem(32 bytes @ 0xE00FFFD0) -- Data:  00 00 00 00 00 00 00 00 00 00 00 00 00 00 00 00 ...  returns 0x00 (0001ms, 3371ms total)
T1F04 003:601 JLINK_ReadMem (0xE00FF000, 0x0018 Bytes, ...) -- CPU is running -- CPU_ReadMem(24 bytes @ 0xE00FF000) -- Data:  03 F0 F0 FF 03 20 F0 FF 03 30 F0 FF 03 10 F0 FF ...  returns 0x00 (0002ms, 3372ms total)
T1F04 003:603 JLINK_ReadMemU32(0xE000ED00, 0x0001 Items, ...) -- CPU is running -- CPU_ReadMem(4 bytes @ 0xE000ED00) -- Data:  31 C2 1F 41  returns 0x01 (0001ms, 3374ms total)
T1F04 003:604 JLINK_SetResetType(JLINKARM_RESET_TYPE_NORMAL)  returns JLINKARM_RESET_TYPE_NORMAL (0000ms, 3375ms total)
T1F04 003:604 JLINK_Reset() >0x108 TIF>Found SWD-DP with ID 0x1BA01477 >0x35 TIF> >0x35 TIF> >0x33 TIF> >0x35 TIF> >0x35 TIF> >0x35 TIF> >0x33 TIF> >0x33 TIF> >0x35 TIF> >0x33 TIF> >0x33 TIF> >0x108 TIF>Found SWD-DP with ID 0x1BA01477 >0x33 TIF> >0x35 TIF> >0x35 TIF> >0x33 TIF> >0x33 TIF> >0x35 TIF> >0x33 TIF> >0x33 TIF> >0x33 TIF> >0x33 TIF> >0x33 TIF> >0x35 TIF> >0x33 TIF> >0x33 TIF> >0x35 TIF> >0x33 TIF> >0x33 TIF> >0x35 TIF> >0x33 TIF> >0x33 TIF> >0x35 TIF> >0x35 TIF> >0x35 TIF> >0x33 TIF> >0x33 TIF>
 >0x35 TIF> >0x35 TIF> >0x35 TIF> >0x33 TIF> >0x33 TIF> >0x33 TIF>TPIU fitted.ETM fitted. >0x35 TIF> >0x33 TIF> >0x33 TIF> >0x35 TIF> >0x33 TIF> >0x33 TIF>FPUnit: 6 code (BP) slots and 2 literal slots >0x35 TIF> >0x33 TIF> >0x33 TIF> >0x35 TIF> >0x33 TIF> >0x33 TIF> >0x35 TIF> >0x33 TIF> >0x33 TIF> >0x35 TIF> >0x33 TIF> >0x33 TIF>Found Cortex-M3 r1p1, Little endian. -- CPU is running -- CPU_WriteMem(4 bytes @ 0xE000EDF0) -- CPU is running -- CPU_WriteMem(4 bytes @ 0xE000EDFC) >0x35 TIF> -- CPU is running
 -- CPU_WriteMem(4 bytes @ 0xE000ED0C) -- CPU is running -- CPU_ReadMem(4 bytes @ 0xE000EDF0) -- CPU is running -- CPU_ReadMem(4 bytes @ 0xE000EDF0) -- CPU is running -- CPU_WriteMem(4 bytes @ 0xE000EDF0) -- CPU is running -- CPU_WriteMem(4 bytes @ 0xE000EDFC) -- CPU is running -- CPU_ReadMem(4 bytes @ 0xE000EDF0) -- CPU_WriteMem(4 bytes @ 0xE0002000) (0203ms, 3375ms total)
T1F04 003:807 JLINK_Halt()  returns 0x00 (0000ms, 3578ms total)
T1F04 003:807 JLINK_IsHalted()  returns TRUE (0000ms, 3578ms total)
T1F04 003:807 JLINK_ReadMemU32(0xE000EDF0, 0x0001 Items, ...) -- CPU_ReadMem(4 bytes @ 0xE000EDF0) -- Data:  03 00 03 00  returns 0x01 (0001ms, 3578ms total)
T1F04 003:808 JLINK_WriteU32(0xE000EDF0, 0xA05F0003) -- CPU_WriteMem(4 bytes @ 0xE000EDF0)  returns 0x00 (0001ms, 3579ms total)
T1F04 003:809 JLINK_WriteU32(0xE000EDFC, 0x01000000) -- CPU_WriteMem(4 bytes @ 0xE000EDFC)  returns 0x00 (0001ms, 3580ms total)
T1F04 003:936 JLINK_GetHWStatus(...)  returns 0x00 (0000ms, 3581ms total)
T1F04 003:987 JLINK_GetNumBPUnits(Type = 0xFFFFFF00)  returns 0x06 (0000ms, 3581ms total)
T1F04 003:987 JLINK_GetNumBPUnits(Type = 0xF0)  returns 0x2000 (0001ms, 3581ms total)
T1F04 003:988 JLINK_GetNumWPUnits()  returns 0x04 (0000ms, 3582ms total)
T1F04 004:040 JLINK_GetSpeed()  returns 0x7D0 (0000ms, 3582ms total)
T1F04 004:071 JLINK_ReadMemU32(0xE000E004, 0x0001 Items, ...) -- CPU_ReadMem(4 bytes @ 0xE000E004) -- Data:  01 00 00 00  returns 0x01 (0001ms, 3582ms total)
T1F04 004:072 JLINK_ReadMemU32(0xE000E004, 0x0001 Items, ...) -- CPU_ReadMem(4 bytes @ 0xE000E004) -- Data:  01 00 00 00  returns 0x01 (0001ms, 3583ms total)
T1F04 004:073 JLINK_WriteMem(0xE0001000, 0x001C Bytes, ...) -- Data:  01 00 00 00 00 00 00 00 00 00 00 00 00 00 00 00 ... -- CPU_WriteMem(28 bytes @ 0xE0001000)  returns 0x1C (0001ms, 3584ms total)
T1F04 004:074 JLINK_ReadMem (0xE0001000, 0x001C Bytes, ...) -- CPU_ReadMem(28 bytes @ 0xE0001000) -- Data:  01 00 00 40 00 00 00 00 00 00 00 00 00 00 00 00 ...  returns 0x00 (0001ms, 3585ms total)
T1F04 004:075 JLINK_Halt()  returns 0x00 (0000ms, 3586ms total)
T1F04 004:075 JLINK_IsHalted()  returns TRUE (0001ms, 3586ms total)
T1F04 004:080 JLINK_WriteMem(0x20000000, 0x0164 Bytes, ...) -- Data:  00 BE 0A E0 0D 78 2D 06 68 40 08 24 40 00 00 D3 ... -- CPU_WriteMem(356 bytes @ 0x20000000)  returns 0x164 (0005ms, 3586ms total)
T1F04 004:085 JLINK_WriteReg(R0, 0x08000000)  returns 0x00 (0000ms, 3591ms total)
T1F04 004:085 JLINK_WriteReg(R1, 0x007A1200)  returns 0x00 (0000ms, 3591ms total)
T1F04 004:085 JLINK_WriteReg(R2, 0x00000001)  returns 0x00 (0000ms, 3591ms total)
T1F04 004:085 JLINK_WriteReg(R3, 0x00000000)  returns 0x00 (0001ms, 3591ms total)
T1F04 004:086 JLINK_WriteReg(R4, 0x00000000)  returns 0x00 (0000ms, 3592ms total)
T1F04 004:086 JLINK_WriteReg(R5, 0x00000000)  returns 0x00 (0000ms, 3592ms total)
T1F04 004:086 JLINK_WriteReg(R6, 0x00000000)  returns 0x00 (0000ms, 3592ms total)
T1F04 004:086 JLINK_WriteReg(R7, 0x00000000)  returns 0x00 (0000ms, 3592ms total)
T1F04 004:086 JLINK_WriteReg(R8, 0x00000000)  returns 0x00 (0000ms, 3592ms total)
T1F04 004:086 JLINK_WriteReg(R9, 0x20000160)  returns 0x00 (0001ms, 3592ms total)
T1F04 004:087 JLINK_WriteReg(R10, 0x00000000)  returns 0x00 (0000ms, 3593ms total)
T1F04 004:087 JLINK_WriteReg(R11, 0x00000000)  returns 0x00 (0000ms, 3593ms total)
T1F04 004:087 JLINK_WriteReg(R12, 0x00000000)  returns 0x00 (0000ms, 3593ms total)
T1F04 004:087 JLINK_WriteReg(R13, 0x20000800)  returns 0x00 (0000ms, 3593ms total)
T1F04 004:087 JLINK_WriteReg(R14, 0x20000001)  returns 0x00 (0001ms, 3593ms total)
T1F04 004:088 JLINK_WriteReg(R15, 0x20000038)  returns 0x00 (0000ms, 3594ms total)
T1F04 004:088 JLINK_WriteReg(XPSR, 0x01000000)  returns 0x00 (0000ms, 3594ms total)
T1F04 004:088 JLINK_WriteReg(MSP, 0x20000800)  returns 0x00 (0000ms, 3594ms total)
T1F04 004:088 JLINK_WriteReg(PSP, 0x20000800)  returns 0x00 (0000ms, 3594ms total)
T1F04 004:088 JLINK_WriteReg(CFBP, 0x00000000)  returns 0x00 (0001ms, 3594ms total)
T1F04 004:089 JLINK_SetBPEx(Addr = 0x20000000, Type = 0xFFFFFFF2) -- CPU_ReadMem(2 bytes @ 0x20000000)  returns 0x00000001 (0001ms, 3595ms total)
T1F04 004:090 JLINK_Go() -- CPU_WriteMem(2 bytes @ 0x20000000) -- CPU_WriteMem(4 bytes @ 0xE0002008) -- CPU_WriteMem(4 bytes @ 0xE000200C) -- CPU_WriteMem(4 bytes @ 0xE0002010) -- CPU_WriteMem(4 bytes @ 0xE0002014) -- CPU_WriteMem(4 bytes @ 0xE0002018) -- CPU_WriteMem(4 bytes @ 0xE000201C) (0008ms, 3596ms total)
T1F04 004:098 JLINK_IsHalted() -- CPU_ReadMem(2 bytes @ 0x20000000)  returns TRUE (0004ms, 3604ms total)
T1F04 004:102 JLINK_ReadReg(R15)  returns 0x20000000 (0001ms, 3604ms total)
T1F04 004:103 JLINK_ClrBPEx(BPHandle = 0x00000001)  returns 0x00 (0000ms, 3605ms total)
T1F04 004:103 JLINK_ReadReg(R0)  returns 0x00000000 (0000ms, 3605ms total)
T1F04 004:104 JLINK_WriteReg(R0, 0x08000000)  returns 0x00 (0000ms, 3605ms total)
T1F04 004:104 JLINK_WriteReg(R1, 0x00000800)  returns 0x00 (0000ms, 3605ms total)
T1F04 004:104 JLINK_WriteReg(R2, 0x000000FF)  returns 0x00 (0000ms, 3605ms total)
T1F04 004:104 JLINK_WriteReg(R3, 0x00000000)  returns 0x00 (0000ms, 3605ms total)
T1F04 004:105 JLINK_WriteReg(R4, 0x00000000)  returns 0x00 (0000ms, 3606ms total)
T1F04 004:105 JLINK_WriteReg(R5, 0x00000000)  returns 0x00 (0000ms, 3606ms total)
T1F04 004:105 JLINK_WriteReg(R6, 0x00000000)  returns 0x00 (0000ms, 3606ms total)
T1F04 004:105 JLINK_WriteReg(R7, 0x00000000)  returns 0x00 (0000ms, 3606ms total)
T1F04 004:105 JLINK_WriteReg(R8, 0x00000000)  returns 0x00 (0000ms, 3606ms total)
T1F04 004:105 JLINK_WriteReg(R9, 0x20000160)  returns 0x00 (0001ms, 3606ms total)
T1F04 004:106 JLINK_WriteReg(R10, 0x00000000)  returns 0x00 (0000ms, 3607ms total)
T1F04 004:106 JLINK_WriteReg(R11, 0x00000000)  returns 0x00 (0000ms, 3607ms total)
T1F04 004:106 JLINK_WriteReg(R12, 0x00000000)  returns 0x00 (0000ms, 3607ms total)
T1F04 004:106 JLINK_WriteReg(R13, 0x20000800)  returns 0x00 (0000ms, 3607ms total)
T1F04 004:106 JLINK_WriteReg(R14, 0x20000001)  returns 0x00 (0000ms, 3607ms total)
T1F04 004:107 JLINK_WriteReg(R15, 0x20000020)  returns 0x00 (0000ms, 3608ms total)
T1F04 004:107 JLINK_WriteReg(XPSR, 0x01000000)  returns 0x00 (0000ms, 3608ms total)
T1F04 004:107 JLINK_WriteReg(MSP, 0x20000800)  returns 0x00 (0000ms, 3608ms total)
T1F04 004:107 JLINK_WriteReg(PSP, 0x20000800)  returns 0x00 (0000ms, 3608ms total)
T1F04 004:107 JLINK_WriteReg(CFBP, 0x00000000)  returns 0x00 (0000ms, 3608ms total)
T1F04 004:107 JLINK_SetBPEx(Addr = 0x20000000, Type = 0xFFFFFFF2)  returns 0x00000002 (0001ms, 3608ms total)
T1F04 004:108 JLINK_Go() -- CPU_WriteMem(4 bytes @ 0xE0002008) -- CPU_WriteMem(4 bytes @ 0xE000200C) -- CPU_WriteMem(4 bytes @ 0xE0002010) -- CPU_WriteMem(4 bytes @ 0xE0002014) -- CPU_WriteMem(4 bytes @ 0xE0002018) -- CPU_WriteMem(4 bytes @ 0xE000201C) (0006ms, 3609ms total)
T1F04 004:114 JLINK_IsHalted() -- CPU_ReadMem(2 bytes @ 0x20000000)  returns TRUE (0005ms, 3615ms total)
T1F04 004:119 JLINK_ReadReg(R15)  returns 0x20000000 (0000ms, 3615ms total)
T1F04 004:119 JLINK_ClrBPEx(BPHandle = 0x00000002)  returns 0x00 (0001ms, 3615ms total)
T1F04 004:120 JLINK_ReadReg(R0)  returns 0x00000001 (0000ms, 3616ms total)
T1F04 004:120 JLINK_WriteReg(R0, 0x08000000)  returns 0x00 (0000ms, 3616ms total)
T1F04 004:120 JLINK_WriteReg(R1, 0x00000800)  returns 0x00 (0000ms, 3616ms total)
T1F04 004:120 JLINK_WriteReg(R2, 0x000000FF)  returns 0x00 (0000ms, 3616ms total)
T1F04 004:120 JLINK_WriteReg(R3, 0x00000000)  returns 0x00 (0001ms, 3616ms total)
T1F04 004:121 JLINK_WriteReg(R4, 0x00000000)  returns 0x00 (0000ms, 3617ms total)
T1F04 004:121 JLINK_WriteReg(R5, 0x00000000)  returns 0x00 (0000ms, 3617ms total)
T1F04 004:121 JLINK_WriteReg(R6, 0x00000000)  returns 0x00 (0000ms, 3617ms total)
T1F04 004:121 JLINK_WriteReg(R7, 0x00000000)  returns 0x00 (0000ms, 3617ms total)
T1F04 004:121 JLINK_WriteReg(R8, 0x00000000)  returns 0x00 (0000ms, 3617ms total)
T1F04 004:122 JLINK_WriteReg(R9, 0x20000160)  returns 0x00 (0000ms, 3617ms total)
T1F04 004:122 JLINK_WriteReg(R10, 0x00000000)  returns 0x00 (0000ms, 3617ms total)
T1F04 004:122 JLINK_WriteReg(R11, 0x00000000)  returns 0x00 (0000ms, 3617ms total)
T1F04 004:122 JLINK_WriteReg(R12, 0x00000000)  returns 0x00 (0000ms, 3617ms total)
T1F04 004:122 JLINK_WriteReg(R13, 0x20000800)  returns 0x00 (0000ms, 3617ms total)
T1F04 004:122 JLINK_WriteReg(R14, 0x20000001)  returns 0x00 (0001ms, 3617ms total)
T1F04 004:123 JLINK_WriteReg(R15, 0x200000B6)  returns 0x00 (0000ms, 3618ms total)
T1F04 004:123 JLINK_WriteReg(XPSR, 0x01000000)  returns 0x00 (0000ms, 3618ms total)
T1F04 004:123 JLINK_WriteReg(MSP, 0x20000800)  returns 0x00 (0000ms, 3618ms total)
T1F04 004:123 JLINK_WriteReg(PSP, 0x20000800)  returns 0x00 (0000ms, 3618ms total)
T1F04 004:123 JLINK_WriteReg(CFBP, 0x00000000)  returns 0x00 (0001ms, 3618ms total)
T1F04 004:124 JLINK_SetBPEx(Addr = 0x20000000, Type = 0xFFFFFFF2)  returns 0x00000003 (0000ms, 3619ms total)
T1F04 004:124 JLINK_Go() -- CPU_WriteMem(4 bytes @ 0xE0002008) -- CPU_WriteMem(4 bytes @ 0xE000200C) -- CPU_WriteMem(4 bytes @ 0xE0002010) -- CPU_WriteMem(4 bytes @ 0xE0002014) -- CPU_WriteMem(4 bytes @ 0xE0002018) -- CPU_WriteMem(4 bytes @ 0xE000201C) (0006ms, 3619ms total)
T1F04 004:130 JLINK_IsHalted()  returns FALSE (0001ms, 3625ms total)
T1F04 006:372 JLINK_IsHalted() -- CPU_ReadMem(2 bytes @ 0x20000000)  returns TRUE (0005ms, 3625ms total)
T1F04 006:377 JLINK_ReadReg(R15)  returns 0x20000000 (0000ms, 3625ms total)
T1F04 006:378 JLINK_ClrBPEx(BPHandle = 0x00000003)  returns 0x00 (0000ms, 3626ms total)
T1F04 006:378 JLINK_ReadReg(R0)  returns 0x00000000 (0000ms, 3626ms total)
T1F04 006:380 JLINK_WriteReg(R0, 0x08000800)  returns 0x00 (0000ms, 3626ms total)
T1F04 006:380 JLINK_WriteReg(R1, 0x00000800)  returns 0x00 (0000ms, 3626ms total)
T1F04 006:380 JLINK_WriteReg(R2, 0x000000FF)  returns 0x00 (0000ms, 3626ms total)
T1F04 006:380 JLINK_WriteReg(R3, 0x00000000)  returns 0x00 (0000ms, 3626ms total)
T1F04 006:380 JLINK_WriteReg(R4, 0x00000000)  returns 0x00 (0001ms, 3626ms total)
T1F04 006:381 JLINK_WriteReg(R5, 0x00000000)  returns 0x00 (0000ms, 3627ms total)
T1F04 006:381 JLINK_WriteReg(R6, 0x00000000)  returns 0x00 (0000ms, 3627ms total)
T1F04 006:381 JLINK_WriteReg(R7, 0x00000000)  returns 0x00 (0000ms, 3627ms total)
T1F04 006:381 JLINK_WriteReg(R8, 0x00000000)  returns 0x00 (0000ms, 3627ms total)
T1F04 006:381 JLINK_WriteReg(R9, 0x20000160)  returns 0x00 (0001ms, 3627ms total)
T1F04 006:382 JLINK_WriteReg(R10, 0x00000000)  returns 0x00 (0000ms, 3628ms total)
T1F04 006:382 JLINK_WriteReg(R11, 0x00000000)  returns 0x00 (0000ms, 3628ms total)
T1F04 006:382 JLINK_WriteReg(R12, 0x00000000)  returns 0x00 (0000ms, 3628ms total)
T1F04 006:382 JLINK_WriteReg(R13, 0x20000800)  returns 0x00 (0000ms, 3628ms total)
T1F04 006:382 JLINK_WriteReg(R14, 0x20000001)  returns 0x00 (0001ms, 3628ms total)
T1F04 006:383 JLINK_WriteReg(R15, 0x20000020)  returns 0x00 (0000ms, 3629ms total)
T1F04 006:383 JLINK_WriteReg(XPSR, 0x01000000)  returns 0x00 (0000ms, 3629ms total)
T1F04 006:383 JLINK_WriteReg(MSP, 0x20000800)  returns 0x00 (0000ms, 3629ms total)
T1F04 006:383 JLINK_WriteReg(PSP, 0x20000800)  returns 0x00 (0000ms, 3629ms total)
T1F04 006:383 JLINK_WriteReg(CFBP, 0x00000000)  returns 0x00 (0000ms, 3629ms total)
T1F04 006:383 JLINK_SetBPEx(Addr = 0x20000000, Type = 0xFFFFFFF2)  returns 0x00000004 (0000ms, 3629ms total)
T1F04 006:383 JLINK_Go() -- CPU_WriteMem(4 bytes @ 0xE0002008) -- CPU_WriteMem(4 bytes @ 0xE000200C) -- CPU_WriteMem(4 bytes @ 0xE0002010) -- CPU_WriteMem(4 bytes @ 0xE0002014) -- CPU_WriteMem(4 bytes @ 0xE0002018) -- CPU_WriteMem(4 bytes @ 0xE000201C) (0008ms, 3629ms total)
T1F04 006:391 JLINK_IsHalted() -- CPU_ReadMem(2 bytes @ 0x20000000)  returns TRUE (0005ms, 3637ms total)
T1F04 006:396 JLINK_ReadReg(R15)  returns 0x20000000 (0000ms, 3637ms total)
T1F04 006:396 JLINK_ClrBPEx(BPHandle = 0x00000004)  returns 0x00 (0000ms, 3637ms total)
T1F04 006:396 JLINK_ReadReg(R0)  returns 0x00000001 (0000ms, 3637ms total)
T1F04 006:396 JLINK_WriteReg(R0, 0x08000800)  returns 0x00 (0000ms, 3637ms total)
T1F04 006:397 JLINK_WriteReg(R1, 0x00000800)  returns 0x00 (0000ms, 3638ms total)
T1F04 006:397 JLINK_WriteReg(R2, 0x000000FF)  returns 0x00 (0000ms, 3638ms total)
T1F04 006:397 JLINK_WriteReg(R3, 0x00000000)  returns 0x00 (0000ms, 3638ms total)
T1F04 006:397 JLINK_WriteReg(R4, 0x00000000)  returns 0x00 (0000ms, 3638ms total)
T1F04 006:397 JLINK_WriteReg(R5, 0x00000000)  returns 0x00 (0001ms, 3638ms total)
T1F04 006:398 JLINK_WriteReg(R6, 0x00000000)  returns 0x00 (0000ms, 3639ms total)
T1F04 006:398 JLINK_WriteReg(R7, 0x00000000)  returns 0x00 (0000ms, 3639ms total)
T1F04 006:398 JLINK_WriteReg(R8, 0x00000000)  returns 0x00 (0000ms, 3639ms total)
T1F04 006:398 JLINK_WriteReg(R9, 0x20000160)  returns 0x00 (0000ms, 3639ms total)
T1F04 006:398 JLINK_WriteReg(R10, 0x00000000)  returns 0x00 (0000ms, 3639ms total)
T1F04 006:398 JLINK_WriteReg(R11, 0x00000000)  returns 0x00 (0001ms, 3639ms total)
T1F04 006:399 JLINK_WriteReg(R12, 0x00000000)  returns 0x00 (0000ms, 3640ms total)
T1F04 006:399 JLINK_WriteReg(R13, 0x20000800)  returns 0x00 (0000ms, 3640ms total)
T1F04 006:399 JLINK_WriteReg(R14, 0x20000001)  returns 0x00 (0000ms, 3640ms total)
T1F04 006:399 JLINK_WriteReg(R15, 0x200000B6)  returns 0x00 (0001ms, 3640ms total)
T1F04 006:400 JLINK_WriteReg(XPSR, 0x01000000)  returns 0x00 (0000ms, 3641ms total)
T1F04 006:400 JLINK_WriteReg(MSP, 0x20000800)  returns 0x00 (0000ms, 3641ms total)
T1F04 006:400 JLINK_WriteReg(PSP, 0x20000800)  returns 0x00 (0001ms, 3641ms total)
T1F04 006:401 JLINK_WriteReg(CFBP, 0x00000000)  returns 0x00 (0000ms, 3642ms total)
T1F04 006:401 JLINK_SetBPEx(Addr = 0x20000000, Type = 0xFFFFFFF2)  returns 0x00000005 (0000ms, 3642ms total)
T1F04 006:401 JLINK_Go() -- CPU_WriteMem(4 bytes @ 0xE0002008) -- CPU_WriteMem(4 bytes @ 0xE000200C) -- CPU_WriteMem(4 bytes @ 0xE0002010) -- CPU_WriteMem(4 bytes @ 0xE0002014) -- CPU_WriteMem(4 bytes @ 0xE0002018) -- CPU_WriteMem(4 bytes @ 0xE000201C) (0006ms, 3642ms total)
T1F04 006:408 JLINK_IsHalted()  returns FALSE (0000ms, 3649ms total)
T1F04 007:270 JLINK_IsHalted() -- CPU_ReadMem(2 bytes @ 0x20000000)  returns TRUE (0005ms, 3649ms total)
T1F04 007:275 JLINK_ReadReg(R15)  returns 0x20000000 (0000ms, 3649ms total)
T1F04 007:275 JLINK_ClrBPEx(BPHandle = 0x00000005)  returns 0x00 (0000ms, 3649ms total)
T1F04 007:275 JLINK_ReadReg(R0)  returns 0x00000000 (0000ms, 3649ms total)
T1F04 007:277 JLINK_WriteReg(R0, 0x08001000)  returns 0x00 (0000ms, 3649ms total)
T1F04 007:277 JLINK_WriteReg(R1, 0x00000800)  returns 0x00 (0000ms, 3649ms total)
T1F04 007:277 JLINK_WriteReg(R2, 0x000000FF)  returns 0x00 (0000ms, 3649ms total)
T1F04 007:277 JLINK_WriteReg(R3, 0x00000000)  returns 0x00 (0000ms, 3649ms total)
T1F04 007:277 JLINK_WriteReg(R4, 0x00000000)  returns 0x00 (0001ms, 3649ms total)
T1F04 007:278 JLINK_WriteReg(R5, 0x00000000)  returns 0x00 (0000ms, 3650ms total)
T1F04 007:278 JLINK_WriteReg(R6, 0x00000000)  returns 0x00 (0000ms, 3650ms total)
T1F04 007:278 JLINK_WriteReg(R7, 0x00000000)  returns 0x00 (0000ms, 3650ms total)
T1F04 007:278 JLINK_WriteReg(R8, 0x00000000)  returns 0x00 (0000ms, 3650ms total)
T1F04 007:278 JLINK_WriteReg(R9, 0x20000160)  returns 0x00 (0000ms, 3650ms total)
T1F04 007:278 JLINK_WriteReg(R10, 0x00000000)  returns 0x00 (0000ms, 3650ms total)
T1F04 007:278 JLINK_WriteReg(R11, 0x00000000)  returns 0x00 (0000ms, 3650ms total)
T1F04 007:279 JLINK_WriteReg(R12, 0x00000000)  returns 0x00 (0000ms, 3651ms total)
T1F04 007:279 JLINK_WriteReg(R13, 0x20000800)  returns 0x00 (0000ms, 3651ms total)
T1F04 007:279 JLINK_WriteReg(R14, 0x20000001)  returns 0x00 (0000ms, 3651ms total)
T1F04 007:279 JLINK_WriteReg(R15, 0x20000020)  returns 0x00 (0000ms, 3651ms total)
T1F04 007:279 JLINK_WriteReg(XPSR, 0x01000000)  returns 0x00 (0000ms, 3651ms total)
T1F04 007:279 JLINK_WriteReg(MSP, 0x20000800)  returns 0x00 (0000ms, 3651ms total)
T1F04 007:279 JLINK_WriteReg(PSP, 0x20000800)  returns 0x00 (0000ms, 3651ms total)
T1F04 007:279 JLINK_WriteReg(CFBP, 0x00000000)  returns 0x00 (0001ms, 3651ms total)
T1F04 007:280 JLINK_SetBPEx(Addr = 0x20000000, Type = 0xFFFFFFF2)  returns 0x00000006 (0000ms, 3652ms total)
T1F04 007:280 JLINK_Go() -- CPU_WriteMem(4 bytes @ 0xE0002008) -- CPU_WriteMem(4 bytes @ 0xE000200C) -- CPU_WriteMem(4 bytes @ 0xE0002010) -- CPU_WriteMem(4 bytes @ 0xE0002014) -- CPU_WriteMem(4 bytes @ 0xE0002018) -- CPU_WriteMem(4 bytes @ 0xE000201C) (0007ms, 3652ms total)
T1F04 007:287 JLINK_IsHalted() -- CPU_ReadMem(2 bytes @ 0x20000000)  returns TRUE (0005ms, 3659ms total)
T1F04 007:292 JLINK_ReadReg(R15)  returns 0x20000000 (0000ms, 3659ms total)
T1F04 007:292 JLINK_ClrBPEx(BPHandle = 0x00000006)  returns 0x00 (0001ms, 3659ms total)
T1F04 007:293 JLINK_ReadReg(R0)  returns 0x00000001 (0000ms, 3660ms total)
T1F04 007:293 JLINK_WriteReg(R0, 0x08001000)  returns 0x00 (0000ms, 3660ms total)
T1F04 007:293 JLINK_WriteReg(R1, 0x00000800)  returns 0x00 (0000ms, 3660ms total)
T1F04 007:293 JLINK_WriteReg(R2, 0x000000FF)  returns 0x00 (0000ms, 3660ms total)
T1F04 007:293 JLINK_WriteReg(R3, 0x00000000)  returns 0x00 (0000ms, 3660ms total)
T1F04 007:293 JLINK_WriteReg(R4, 0x00000000)  returns 0x00 (0001ms, 3660ms total)
T1F04 007:294 JLINK_WriteReg(R5, 0x00000000)  returns 0x00 (0000ms, 3661ms total)
T1F04 007:294 JLINK_WriteReg(R6, 0x00000000)  returns 0x00 (0000ms, 3661ms total)
T1F04 007:294 JLINK_WriteReg(R7, 0x00000000)  returns 0x00 (0000ms, 3661ms total)
T1F04 007:294 JLINK_WriteReg(R8, 0x00000000)  returns 0x00 (0001ms, 3661ms total)
T1F04 007:295 JLINK_WriteReg(R9, 0x20000160)  returns 0x00 (0000ms, 3662ms total)
T1F04 007:295 JLINK_WriteReg(R10, 0x00000000)  returns 0x00 (0000ms, 3662ms total)
T1F04 007:295 JLINK_WriteReg(R11, 0x00000000)  returns 0x00 (0000ms, 3662ms total)
T1F04 007:295 JLINK_WriteReg(R12, 0x00000000)  returns 0x00 (0000ms, 3662ms total)
T1F04 007:295 JLINK_WriteReg(R13, 0x20000800)  returns 0x00 (0001ms, 3662ms total)
T1F04 007:296 JLINK_WriteReg(R14, 0x20000001)  returns 0x00 (0000ms, 3663ms total)
T1F04 007:296 JLINK_WriteReg(R15, 0x200000B6)  returns 0x00 (0000ms, 3663ms total)
T1F04 007:296 JLINK_WriteReg(XPSR, 0x01000000)  returns 0x00 (0000ms, 3663ms total)
T1F04 007:296 JLINK_WriteReg(MSP, 0x20000800)  returns 0x00 (0000ms, 3663ms total)
T1F04 007:296 JLINK_WriteReg(PSP, 0x20000800)  returns 0x00 (0000ms, 3663ms total)
T1F04 007:296 JLINK_WriteReg(CFBP, 0x00000000)  returns 0x00 (0001ms, 3663ms total)
T1F04 007:297 JLINK_SetBPEx(Addr = 0x20000000, Type = 0xFFFFFFF2)  returns 0x00000007 (0000ms, 3664ms total)
T1F04 007:297 JLINK_Go() -- CPU_WriteMem(4 bytes @ 0xE0002008) -- CPU_WriteMem(4 bytes @ 0xE000200C) -- CPU_WriteMem(4 bytes @ 0xE0002010) -- CPU_WriteMem(4 bytes @ 0xE0002014) -- CPU_WriteMem(4 bytes @ 0xE0002018) -- CPU_WriteMem(4 bytes @ 0xE000201C) (0007ms, 3664ms total)
T1F04 007:304 JLINK_IsHalted()  returns FALSE (0001ms, 3671ms total)
T1F04 007:341 JLINK_ReadReg(R0) -- CPU is running
  ***** Error: Can not read register 0 (R0) while CPU is running  returns 0x00000000 (0000ms, 3671ms total)
T1F04 007:348 JLINK_ReadReg(R1) -- CPU is running
  ***** Error: Can not read register 1 (R1) while CPU is running  returns 0x00000000 (0000ms, 3671ms total)
T1F04 007:363 JLINK_ReadReg(R2) -- CPU is running
  ***** Error: Can not read register 2 (R2) while CPU is running  returns 0x00000000 (0001ms, 3671ms total)
T1F04 007:390 JLINK_ReadReg(R3) -- CPU is running
  ***** Error: Can not read register 3 (R3) while CPU is running  returns 0x00000000 (0001ms, 3672ms total)
T1F04 007:440 JLINK_ReadReg(R4) -- CPU is running
  ***** Error: Can not read register 4 (R4) while CPU is running  returns 0x00000000 (0000ms, 3673ms total)
T1F04 007:452 JLINK_ReadReg(R5) -- CPU is running
  ***** Error: Can not read register 5 (R5) while CPU is running  returns 0x00000000 (0001ms, 3673ms total)
T1F04 007:459 JLINK_ReadReg(R6) -- CPU is running
  ***** Error: Can not read register 6 (R6) while CPU is running  returns 0x00000000 (0001ms, 3674ms total)
T1F04 007:472 JLINK_ReadReg(R7) -- CPU is running
  ***** Error: Can not read register 7 (R7) while CPU is running  returns 0x00000000 (0001ms, 3675ms total)
T1F04 007:487 JLINK_ReadReg(R8) -- CPU is running
  ***** Error: Can not read register 8 (R8) while CPU is running  returns 0x00000000 (0000ms, 3676ms total)
T1F04 007:493 JLINK_ReadReg(R9) -- CPU is running
  ***** Error: Can not read register 9 (R9) while CPU is running  returns 0x00000000 (0000ms, 3676ms total)
T1F04 007:514 JLINK_ReadReg(R10) -- CPU is running
  ***** Error: Can not read register 10 (R10) while CPU is running  returns 0x00000000 (0000ms, 3676ms total)
T1F04 007:524 JLINK_ReadReg(R11) -- CPU is running
  ***** Error: Can not read register 11 (R11) while CPU is running  returns 0x00000000 (0000ms, 3676ms total)
T1F04 007:540 JLINK_ReadReg(R12) -- CPU is running
  ***** Error: Can not read register 12 (R12) while CPU is running  returns 0x00000000 (0000ms, 3676ms total)
T1F04 007:548 JLINK_ReadReg(R13) -- CPU is running
  ***** Error: Can not read register 13 (R13) while CPU is running  returns 0x00000000 (0000ms, 3676ms total)
T1F04 007:563 JLINK_ReadReg(R14) -- CPU is running
  ***** Error: Can not read register 14 (R14) while CPU is running  returns 0x00000000 (0000ms, 3676ms total)
T1F04 007:570 JLINK_ReadReg(R15) -- CPU is running
  ***** Error: Can not read register 15 (R15) while CPU is running  returns 0x00000000 (0001ms, 3676ms total)
T1F04 007:585 JLINK_ReadReg(XPSR) -- CPU is running
  ***** Error: Can not read register 16 (XPSR) while CPU is running  returns 0x00000000 (0000ms, 3677ms total)
T1F04 007:599 JLINK_ReadReg(MSP) -- CPU is running
  ***** Error: Can not read register 17 (MSP) while CPU is running  returns 0x00000000 (0000ms, 3677ms total)
T1F04 007:612 JLINK_ReadReg(PSP) -- CPU is running
  ***** Error: Can not read register 18 (PSP) while CPU is running  returns 0x00000000 (0000ms, 3677ms total)
T1F04 007:619 JLINK_ReadReg(CFBP) -- CPU is running
  ***** Error: Can not read register 20 (CFBP) while CPU is running  returns 0x00000000 (0000ms, 3677ms total)
T1F04 007:832 JLINK_IsHalted() -- CPU_ReadMem(2 bytes @ 0x20000000)  returns TRUE (0005ms, 3677ms total)
T1F04 007:837 JLINK_ReadReg(R15)  returns 0x20000000 (0000ms, 3677ms total)
T1F04 007:837 JLINK_ClrBPEx(BPHandle = 0x00000007)  returns 0x00 (0000ms, 3677ms total)
T1F04 007:837 JLINK_ReadReg(R0)  returns 0x00000000 (0000ms, 3677ms total)
T1F04 007:842 JLINK_WriteReg(R0, 0x08001800)  returns 0x00 (0001ms, 3677ms total)
T1F04 007:843 JLINK_WriteReg(R1, 0x00000800)  returns 0x00 (0000ms, 3678ms total)
T1F04 007:843 JLINK_WriteReg(R2, 0x000000FF)  returns 0x00 (0000ms, 3678ms total)
T1F04 007:843 JLINK_WriteReg(R3, 0x00000000)  returns 0x00 (0000ms, 3678ms total)
T1F04 007:843 JLINK_WriteReg(R4, 0x00000000)  returns 0x00 (0000ms, 3678ms total)
T1F04 007:843 JLINK_WriteReg(R5, 0x00000000)  returns 0x00 (0000ms, 3678ms total)
T1F04 007:843 JLINK_WriteReg(R6, 0x00000000)  returns 0x00 (0000ms, 3678ms total)
T1F04 007:843 JLINK_WriteReg(R7, 0x00000000)  returns 0x00 (0000ms, 3678ms total)
T1F04 007:843 JLINK_WriteReg(R8, 0x00000000)  returns 0x00 (0001ms, 3678ms total)
T1F04 007:844 JLINK_WriteReg(R9, 0x20000160)  returns 0x00 (0000ms, 3679ms total)
T1F04 007:844 JLINK_WriteReg(R10, 0x00000000)  returns 0x00 (0000ms, 3679ms total)
T1F04 007:844 JLINK_WriteReg(R11, 0x00000000)  returns 0x00 (0000ms, 3679ms total)
T1F04 007:844 JLINK_WriteReg(R12, 0x00000000)  returns 0x00 (0000ms, 3679ms total)
T1F04 007:844 JLINK_WriteReg(R13, 0x20000800)  returns 0x00 (0000ms, 3679ms total)
T1F04 007:844 JLINK_WriteReg(R14, 0x20000001)  returns 0x00 (0000ms, 3679ms total)
T1F04 007:844 JLINK_WriteReg(R15, 0x20000020)  returns 0x00 (0000ms, 3679ms total)
T1F04 007:844 JLINK_WriteReg(XPSR, 0x01000000)  returns 0x00 (0001ms, 3679ms total)
T1F04 007:845 JLINK_WriteReg(MSP, 0x20000800)  returns 0x00 (0000ms, 3680ms total)
T1F04 007:845 JLINK_WriteReg(PSP, 0x20000800)  returns 0x00 (0000ms, 3680ms total)
T1F04 007:845 JLINK_WriteReg(CFBP, 0x00000000)  returns 0x00 (0000ms, 3680ms total)
T1F04 007:845 JLINK_SetBPEx(Addr = 0x20000000, Type = 0xFFFFFFF2)  returns 0x00000008 (0000ms, 3680ms total)
T1F04 007:845 JLINK_Go() -- CPU_WriteMem(4 bytes @ 0xE0002008) -- CPU_WriteMem(4 bytes @ 0xE000200C) -- CPU_WriteMem(4 bytes @ 0xE0002010) -- CPU_WriteMem(4 bytes @ 0xE0002014) -- CPU_WriteMem(4 bytes @ 0xE0002018) -- CPU_WriteMem(4 bytes @ 0xE000201C) (0007ms, 3680ms total)
T1F04 007:853 JLINK_IsHalted() -- CPU_ReadMem(2 bytes @ 0x20000000)  returns TRUE (0005ms, 3688ms total)
T1F04 007:858 JLINK_ReadReg(R15)  returns 0x20000000 (0000ms, 3688ms total)
T1F04 007:858 JLINK_ClrBPEx(BPHandle = 0x00000008)  returns 0x00 (0000ms, 3688ms total)
T1F04 007:858 JLINK_ReadReg(R0)  returns 0x00000001 (0000ms, 3688ms total)
T1F04 007:858 JLINK_WriteReg(R0, 0x08001800)  returns 0x00 (0000ms, 3688ms total)
T1F04 007:858 JLINK_WriteReg(R1, 0x00000800)  returns 0x00 (0000ms, 3688ms total)
T1F04 007:858 JLINK_WriteReg(R2, 0x000000FF)  returns 0x00 (0001ms, 3688ms total)
T1F04 007:859 JLINK_WriteReg(R3, 0x00000000)  returns 0x00 (0000ms, 3689ms total)
T1F04 007:859 JLINK_WriteReg(R4, 0x00000000)  returns 0x00 (0000ms, 3689ms total)
T1F04 007:859 JLINK_WriteReg(R5, 0x00000000)  returns 0x00 (0000ms, 3689ms total)
T1F04 007:859 JLINK_WriteReg(R6, 0x00000000)  returns 0x00 (0000ms, 3689ms total)
T1F04 007:859 JLINK_WriteReg(R7, 0x00000000)  returns 0x00 (0000ms, 3689ms total)
T1F04 007:859 JLINK_WriteReg(R8, 0x00000000)  returns 0x00 (0000ms, 3689ms total)
T1F04 007:859 JLINK_WriteReg(R9, 0x20000160)  returns 0x00 (0000ms, 3689ms total)
T1F04 007:859 JLINK_WriteReg(R10, 0x00000000)  returns 0x00 (0000ms, 3689ms total)
T1F04 007:860 JLINK_WriteReg(R11, 0x00000000)  returns 0x00 (0000ms, 3690ms total)
T1F04 007:860 JLINK_WriteReg(R12, 0x00000000)  returns 0x00 (0000ms, 3690ms total)
T1F04 007:860 JLINK_WriteReg(R13, 0x20000800)  returns 0x00 (0000ms, 3690ms total)
T1F04 007:860 JLINK_WriteReg(R14, 0x20000001)  returns 0x00 (0000ms, 3690ms total)
T1F04 007:860 JLINK_WriteReg(R15, 0x200000B6)  returns 0x00 (0000ms, 3690ms total)
T1F04 007:860 JLINK_WriteReg(XPSR, 0x01000000)  returns 0x00 (0000ms, 3690ms total)
T1F04 007:860 JLINK_WriteReg(MSP, 0x20000800)  returns 0x00 (0000ms, 3690ms total)
T1F04 007:860 JLINK_WriteReg(PSP, 0x20000800)  returns 0x00 (0001ms, 3690ms total)
T1F04 007:861 JLINK_WriteReg(CFBP, 0x00000000)  returns 0x00 (0000ms, 3691ms total)
T1F04 007:861 JLINK_SetBPEx(Addr = 0x20000000, Type = 0xFFFFFFF2)  returns 0x00000009 (0000ms, 3691ms total)
T1F04 007:861 JLINK_Go() -- CPU_WriteMem(4 bytes @ 0xE0002008) -- CPU_WriteMem(4 bytes @ 0xE000200C) -- CPU_WriteMem(4 bytes @ 0xE0002010) -- CPU_WriteMem(4 bytes @ 0xE0002014) -- CPU_WriteMem(4 bytes @ 0xE0002018) -- CPU_WriteMem(4 bytes @ 0xE000201C) (0007ms, 3691ms total)
T1F04 007:868 JLINK_IsHalted()  returns FALSE (0001ms, 3698ms total)
T1F04 007:988 JLINK_IsHalted() -- CPU_ReadMem(2 bytes @ 0x20000000)  returns TRUE (0005ms, 3698ms total)
T1F04 007:993 JLINK_ReadReg(R15)  returns 0x20000000 (0000ms, 3698ms total)
T1F04 007:993 JLINK_ClrBPEx(BPHandle = 0x00000009)  returns 0x00 (0000ms, 3698ms total)
T1F04 007:993 JLINK_ReadReg(R0)  returns 0x00000000 (0000ms, 3698ms total)
T1F04 007:998 JLINK_WriteReg(R0, 0x08002000)  returns 0x00 (0000ms, 3698ms total)
T1F04 007:998 JLINK_WriteReg(R1, 0x00000800)  returns 0x00 (0000ms, 3698ms total)
T1F04 007:998 JLINK_WriteReg(R2, 0x000000FF)  returns 0x00 (0000ms, 3698ms total)
T1F04 007:998 JLINK_WriteReg(R3, 0x00000000)  returns 0x00 (0001ms, 3698ms total)
T1F04 007:999 JLINK_WriteReg(R4, 0x00000000)  returns 0x00 (0000ms, 3699ms total)
T1F04 007:999 JLINK_WriteReg(R5, 0x00000000)  returns 0x00 (0000ms, 3699ms total)
T1F04 007:999 JLINK_WriteReg(R6, 0x00000000)  returns 0x00 (0000ms, 3699ms total)
T1F04 007:999 JLINK_WriteReg(R7, 0x00000000)  returns 0x00 (0000ms, 3699ms total)
T1F04 007:999 JLINK_WriteReg(R8, 0x00000000)  returns 0x00 (0000ms, 3699ms total)
T1F04 007:999 JLINK_WriteReg(R9, 0x20000160)  returns 0x00 (0001ms, 3699ms total)
T1F04 008:000 JLINK_WriteReg(R10, 0x00000000)  returns 0x00 (0000ms, 3700ms total)
T1F04 008:000 JLINK_WriteReg(R11, 0x00000000)  returns 0x00 (0000ms, 3700ms total)
T1F04 008:000 JLINK_WriteReg(R12, 0x00000000)  returns 0x00 (0000ms, 3700ms total)
T1F04 008:000 JLINK_WriteReg(R13, 0x20000800)  returns 0x00 (0000ms, 3700ms total)
T1F04 008:000 JLINK_WriteReg(R14, 0x20000001)  returns 0x00 (0000ms, 3700ms total)
T1F04 008:000 JLINK_WriteReg(R15, 0x20000020)  returns 0x00 (0000ms, 3700ms total)
T1F04 008:000 JLINK_WriteReg(XPSR, 0x01000000)  returns 0x00 (0001ms, 3700ms total)
T1F04 008:001 JLINK_WriteReg(MSP, 0x20000800)  returns 0x00 (0000ms, 3701ms total)
T1F04 008:001 JLINK_WriteReg(PSP, 0x20000800)  returns 0x00 (0000ms, 3701ms total)
T1F04 008:001 JLINK_WriteReg(CFBP, 0x00000000)  returns 0x00 (0000ms, 3701ms total)
T1F04 008:001 JLINK_SetBPEx(Addr = 0x20000000, Type = 0xFFFFFFF2)  returns 0x0000000A (0000ms, 3701ms total)
T1F04 008:001 JLINK_Go() -- CPU_WriteMem(4 bytes @ 0xE0002008) -- CPU_WriteMem(4 bytes @ 0xE000200C) -- CPU_WriteMem(4 bytes @ 0xE0002010) -- CPU_WriteMem(4 bytes @ 0xE0002014) -- CPU_WriteMem(4 bytes @ 0xE0002018) -- CPU_WriteMem(4 bytes @ 0xE000201C) (0008ms, 3701ms total)
T1F04 008:009 JLINK_IsHalted() -- CPU_ReadMem(2 bytes @ 0x20000000)  returns TRUE (0005ms, 3709ms total)
T1F04 008:014 JLINK_ReadReg(R15)  returns 0x20000000 (0000ms, 3709ms total)
T1F04 008:014 JLINK_ClrBPEx(BPHandle = 0x0000000A)  returns 0x00 (0000ms, 3709ms total)
T1F04 008:014 JLINK_ReadReg(R0)  returns 0x00000001 (0000ms, 3709ms total)
T1F04 008:014 JLINK_WriteReg(R0, 0x08002000)  returns 0x00 (0000ms, 3709ms total)
T1F04 008:014 JLINK_WriteReg(R1, 0x00000800)  returns 0x00 (0000ms, 3709ms total)
T1F04 008:014 JLINK_WriteReg(R2, 0x000000FF)  returns 0x00 (0001ms, 3709ms total)
T1F04 008:015 JLINK_WriteReg(R3, 0x00000000)  returns 0x00 (0000ms, 3710ms total)
T1F04 008:015 JLINK_WriteReg(R4, 0x00000000)  returns 0x00 (0000ms, 3710ms total)
T1F04 008:015 JLINK_WriteReg(R5, 0x00000000)  returns 0x00 (0000ms, 3710ms total)
T1F04 008:015 JLINK_WriteReg(R6, 0x00000000)  returns 0x00 (0000ms, 3710ms total)
T1F04 008:015 JLINK_WriteReg(R7, 0x00000000)  returns 0x00 (0000ms, 3710ms total)
T1F04 008:015 JLINK_WriteReg(R8, 0x00000000)  returns 0x00 (0000ms, 3710ms total)
T1F04 008:015 JLINK_WriteReg(R9, 0x20000160)  returns 0x00 (0000ms, 3710ms total)
T1F04 008:015 JLINK_WriteReg(R10, 0x00000000)  returns 0x00 (0000ms, 3710ms total)
T1F04 008:015 JLINK_WriteReg(R11, 0x00000000)  returns 0x00 (0001ms, 3710ms total)
T1F04 008:016 JLINK_WriteReg(R12, 0x00000000)  returns 0x00 (0000ms, 3711ms total)
T1F04 008:016 JLINK_WriteReg(R13, 0x20000800)  returns 0x00 (0000ms, 3711ms total)
T1F04 008:016 JLINK_WriteReg(R14, 0x20000001)  returns 0x00 (0000ms, 3711ms total)
T1F04 008:016 JLINK_WriteReg(R15, 0x200000B6)  returns 0x00 (0000ms, 3711ms total)
T1F04 008:016 JLINK_WriteReg(XPSR, 0x01000000)  returns 0x00 (0000ms, 3711ms total)
T1F04 008:016 JLINK_WriteReg(MSP, 0x20000800)  returns 0x00 (0000ms, 3711ms total)
T1F04 008:016 JLINK_WriteReg(PSP, 0x20000800)  returns 0x00 (0000ms, 3711ms total)
T1F04 008:016 JLINK_WriteReg(CFBP, 0x00000000)  returns 0x00 (0001ms, 3711ms total)
T1F04 008:017 JLINK_SetBPEx(Addr = 0x20000000, Type = 0xFFFFFFF2)  returns 0x0000000B (0000ms, 3712ms total)
T1F04 008:017 JLINK_Go() -- CPU_WriteMem(4 bytes @ 0xE0002008) -- CPU_WriteMem(4 bytes @ 0xE000200C) -- CPU_WriteMem(4 bytes @ 0xE0002010) -- CPU_WriteMem(4 bytes @ 0xE0002014) -- CPU_WriteMem(4 bytes @ 0xE0002018) -- CPU_WriteMem(4 bytes @ 0xE000201C) (0007ms, 3712ms total)
T1F04 008:024 JLINK_IsHalted()  returns FALSE (0001ms, 3719ms total)
T1F04 008:315 JLINK_IsHalted() -- CPU_ReadMem(2 bytes @ 0x20000000)  returns TRUE (0005ms, 3719ms total)
T1F04 008:320 JLINK_ReadReg(R15)  returns 0x20000000 (0000ms, 3719ms total)
T1F04 008:320 JLINK_ClrBPEx(BPHandle = 0x0000000B)  returns 0x00 (0000ms, 3719ms total)
T1F04 008:320 JLINK_ReadReg(R0)  returns 0x00000000 (0001ms, 3719ms total)
T1F04 008:323 JLINK_WriteReg(R0, 0x08002800)  returns 0x00 (0000ms, 3720ms total)
T1F04 008:323 JLINK_WriteReg(R1, 0x00000800)  returns 0x00 (0001ms, 3720ms total)
T1F04 008:324 JLINK_WriteReg(R2, 0x000000FF)  returns 0x00 (0000ms, 3721ms total)
T1F04 008:324 JLINK_WriteReg(R3, 0x00000000)  returns 0x00 (0000ms, 3721ms total)
T1F04 008:324 JLINK_WriteReg(R4, 0x00000000)  returns 0x00 (0000ms, 3721ms total)
T1F04 008:324 JLINK_WriteReg(R5, 0x00000000)  returns 0x00 (0000ms, 3721ms total)
T1F04 008:324 JLINK_WriteReg(R6, 0x00000000)  returns 0x00 (0000ms, 3721ms total)
T1F04 008:324 JLINK_WriteReg(R7, 0x00000000)  returns 0x00 (0001ms, 3721ms total)
T1F04 008:325 JLINK_WriteReg(R8, 0x00000000)  returns 0x00 (0000ms, 3722ms total)
T1F04 008:325 JLINK_WriteReg(R9, 0x20000160)  returns 0x00 (0000ms, 3722ms total)
T1F04 008:325 JLINK_WriteReg(R10, 0x00000000)  returns 0x00 (0000ms, 3722ms total)
T1F04 008:325 JLINK_WriteReg(R11, 0x00000000)  returns 0x00 (0000ms, 3722ms total)
T1F04 008:325 JLINK_WriteReg(R12, 0x00000000)  returns 0x00 (0000ms, 3722ms total)
T1F04 008:325 JLINK_WriteReg(R13, 0x20000800)  returns 0x00 (0000ms, 3722ms total)
T1F04 008:325 JLINK_WriteReg(R14, 0x20000001)  returns 0x00 (0001ms, 3722ms total)
T1F04 008:326 JLINK_WriteReg(R15, 0x20000020)  returns 0x00 (0000ms, 3723ms total)
T1F04 008:326 JLINK_WriteReg(XPSR, 0x01000000)  returns 0x00 (0000ms, 3723ms total)
T1F04 008:326 JLINK_WriteReg(MSP, 0x20000800)  returns 0x00 (0000ms, 3723ms total)
T1F04 008:326 JLINK_WriteReg(PSP, 0x20000800)  returns 0x00 (0000ms, 3723ms total)
T1F04 008:326 JLINK_WriteReg(CFBP, 0x00000000)  returns 0x00 (0000ms, 3723ms total)
T1F04 008:326 JLINK_SetBPEx(Addr = 0x20000000, Type = 0xFFFFFFF2)  returns 0x0000000C (0000ms, 3723ms total)
T1F04 008:326 JLINK_Go() -- CPU_WriteMem(4 bytes @ 0xE0002008) -- CPU_WriteMem(4 bytes @ 0xE000200C) -- CPU_WriteMem(4 bytes @ 0xE0002010) -- CPU_WriteMem(4 bytes @ 0xE0002014) -- CPU_WriteMem(4 bytes @ 0xE0002018) -- CPU_WriteMem(4 bytes @ 0xE000201C) (0008ms, 3723ms total)
T1F04 008:334 JLINK_IsHalted() -- CPU_ReadMem(2 bytes @ 0x20000000)  returns TRUE (0005ms, 3731ms total)
T1F04 008:339 JLINK_ReadReg(R15)  returns 0x20000000 (0000ms, 3731ms total)
T1F04 008:339 JLINK_ClrBPEx(BPHandle = 0x0000000C)  returns 0x00 (0000ms, 3731ms total)
T1F04 008:340 JLINK_ReadReg(R0)  returns 0x00000001 (0000ms, 3732ms total)
T1F04 008:340 JLINK_WriteReg(R0, 0x08002800)  returns 0x00 (0000ms, 3732ms total)
T1F04 008:340 JLINK_WriteReg(R1, 0x00000800)  returns 0x00 (0000ms, 3732ms total)
T1F04 008:340 JLINK_WriteReg(R2, 0x000000FF)  returns 0x00 (0001ms, 3732ms total)
T1F04 008:341 JLINK_WriteReg(R3, 0x00000000)  returns 0x00 (0000ms, 3733ms total)
T1F04 008:341 JLINK_WriteReg(R4, 0x00000000)  returns 0x00 (0000ms, 3733ms total)
T1F04 008:341 JLINK_WriteReg(R5, 0x00000000)  returns 0x00 (0000ms, 3733ms total)
T1F04 008:341 JLINK_WriteReg(R6, 0x00000000)  returns 0x00 (0000ms, 3733ms total)
T1F04 008:341 JLINK_WriteReg(R7, 0x00000000)  returns 0x00 (0001ms, 3733ms total)
T1F04 008:342 JLINK_WriteReg(R8, 0x00000000)  returns 0x00 (0000ms, 3734ms total)
T1F04 008:342 JLINK_WriteReg(R9, 0x20000160)  returns 0x00 (0000ms, 3734ms total)
T1F04 008:342 JLINK_WriteReg(R10, 0x00000000)  returns 0x00 (0000ms, 3734ms total)
T1F04 008:342 JLINK_WriteReg(R11, 0x00000000)  returns 0x00 (0000ms, 3734ms total)
T1F04 008:342 JLINK_WriteReg(R12, 0x00000000)  returns 0x00 (0000ms, 3734ms total)
T1F04 008:342 JLINK_WriteReg(R13, 0x20000800)  returns 0x00 (0000ms, 3734ms total)
T1F04 008:342 JLINK_WriteReg(R14, 0x20000001)  returns 0x00 (0000ms, 3734ms total)
T1F04 008:342 JLINK_WriteReg(R15, 0x200000B6)  returns 0x00 (0001ms, 3734ms total)
T1F04 008:343 JLINK_WriteReg(XPSR, 0x01000000)  returns 0x00 (0000ms, 3735ms total)
T1F04 008:343 JLINK_WriteReg(MSP, 0x20000800)  returns 0x00 (0000ms, 3735ms total)
T1F04 008:343 JLINK_WriteReg(PSP, 0x20000800)  returns 0x00 (0000ms, 3735ms total)
T1F04 008:343 JLINK_WriteReg(CFBP, 0x00000000)  returns 0x00 (0000ms, 3735ms total)
T1F04 008:343 JLINK_SetBPEx(Addr = 0x20000000, Type = 0xFFFFFFF2)  returns 0x0000000D (0000ms, 3735ms total)
T1F04 008:343 JLINK_Go() -- CPU_WriteMem(4 bytes @ 0xE0002008) -- CPU_WriteMem(4 bytes @ 0xE000200C) -- CPU_WriteMem(4 bytes @ 0xE0002010) -- CPU_WriteMem(4 bytes @ 0xE0002014) -- CPU_WriteMem(4 bytes @ 0xE0002018) -- CPU_WriteMem(4 bytes @ 0xE000201C) (0006ms, 3735ms total)
T1F04 008:350 JLINK_IsHalted()  returns FALSE (0000ms, 3742ms total)
T1F04 008:413 JLINK_IsHalted() -- CPU_ReadMem(2 bytes @ 0x20000000)  returns TRUE (0006ms, 3742ms total)
T1F04 008:419 JLINK_ReadReg(R15)  returns 0x20000000 (0000ms, 3742ms total)
T1F04 008:419 JLINK_ClrBPEx(BPHandle = 0x0000000D)  returns 0x00 (0000ms, 3742ms total)
T1F04 008:419 JLINK_ReadReg(R0)  returns 0x00000000 (0000ms, 3742ms total)
T1F04 008:421 JLINK_WriteReg(R0, 0x08003000)  returns 0x00 (0000ms, 3743ms total)
T1F04 008:421 JLINK_WriteReg(R1, 0x00000800)  returns 0x00 (0000ms, 3743ms total)
T1F04 008:421 JLINK_WriteReg(R2, 0x000000FF)  returns 0x00 (0000ms, 3743ms total)
T1F04 008:421 JLINK_WriteReg(R3, 0x00000000)  returns 0x00 (0001ms, 3743ms total)
T1F04 008:422 JLINK_WriteReg(R4, 0x00000000)  returns 0x00 (0000ms, 3744ms total)
T1F04 008:422 JLINK_WriteReg(R5, 0x00000000)  returns 0x00 (0000ms, 3744ms total)
T1F04 008:422 JLINK_WriteReg(R6, 0x00000000)  returns 0x00 (0000ms, 3744ms total)
T1F04 008:422 JLINK_WriteReg(R7, 0x00000000)  returns 0x00 (0000ms, 3744ms total)
T1F04 008:422 JLINK_WriteReg(R8, 0x00000000)  returns 0x00 (0000ms, 3744ms total)
T1F04 008:422 JLINK_WriteReg(R9, 0x20000160)  returns 0x00 (0000ms, 3744ms total)
T1F04 008:423 JLINK_WriteReg(R10, 0x00000000)  returns 0x00 (0000ms, 3744ms total)
T1F04 008:423 JLINK_WriteReg(R11, 0x00000000)  returns 0x00 (0000ms, 3744ms total)
T1F04 008:423 JLINK_WriteReg(R12, 0x00000000)  returns 0x00 (0000ms, 3744ms total)
T1F04 008:423 JLINK_WriteReg(R13, 0x20000800)  returns 0x00 (0000ms, 3744ms total)
T1F04 008:423 JLINK_WriteReg(R14, 0x20000001)  returns 0x00 (0000ms, 3744ms total)
T1F04 008:423 JLINK_WriteReg(R15, 0x20000020)  returns 0x00 (0000ms, 3744ms total)
T1F04 008:423 JLINK_WriteReg(XPSR, 0x01000000)  returns 0x00 (0001ms, 3744ms total)
T1F04 008:424 JLINK_WriteReg(MSP, 0x20000800)  returns 0x00 (0000ms, 3745ms total)
T1F04 008:424 JLINK_WriteReg(PSP, 0x20000800)  returns 0x00 (0000ms, 3745ms total)
T1F04 008:424 JLINK_WriteReg(CFBP, 0x00000000)  returns 0x00 (0000ms, 3745ms total)
T1F04 008:424 JLINK_SetBPEx(Addr = 0x20000000, Type = 0xFFFFFFF2)  returns 0x0000000E (0000ms, 3745ms total)
T1F04 008:424 JLINK_Go() -- CPU_WriteMem(4 bytes @ 0xE0002008) -- CPU_WriteMem(4 bytes @ 0xE000200C) -- CPU_WriteMem(4 bytes @ 0xE0002010) -- CPU_WriteMem(4 bytes @ 0xE0002014) -- CPU_WriteMem(4 bytes @ 0xE0002018) -- CPU_WriteMem(4 bytes @ 0xE000201C) (0007ms, 3745ms total)
T1F04 008:431 JLINK_IsHalted() -- CPU_ReadMem(2 bytes @ 0x20000000)  returns TRUE (0005ms, 3752ms total)
T1F04 008:436 JLINK_ReadReg(R15)  returns 0x20000000 (0000ms, 3752ms total)
T1F04 008:436 JLINK_ClrBPEx(BPHandle = 0x0000000E)  returns 0x00 (0001ms, 3752ms total)
T1F04 008:437 JLINK_ReadReg(R0)  returns 0x00000001 (0000ms, 3753ms total)
T1F04 008:437 JLINK_WriteReg(R0, 0x08003000)  returns 0x00 (0000ms, 3753ms total)
T1F04 008:437 JLINK_WriteReg(R1, 0x00000800)  returns 0x00 (0000ms, 3753ms total)
T1F04 008:437 JLINK_WriteReg(R2, 0x000000FF)  returns 0x00 (0000ms, 3753ms total)
T1F04 008:437 JLINK_WriteReg(R3, 0x00000000)  returns 0x00 (0001ms, 3753ms total)
T1F04 008:438 JLINK_WriteReg(R4, 0x00000000)  returns 0x00 (0000ms, 3754ms total)
T1F04 008:438 JLINK_WriteReg(R5, 0x00000000)  returns 0x00 (0000ms, 3754ms total)
T1F04 008:438 JLINK_WriteReg(R6, 0x00000000)  returns 0x00 (0000ms, 3754ms total)
T1F04 008:438 JLINK_WriteReg(R7, 0x00000000)  returns 0x00 (0000ms, 3754ms total)
T1F04 008:438 JLINK_WriteReg(R8, 0x00000000)  returns 0x00 (0001ms, 3754ms total)
T1F04 008:439 JLINK_WriteReg(R9, 0x20000160)  returns 0x00 (0000ms, 3755ms total)
T1F04 008:439 JLINK_WriteReg(R10, 0x00000000)  returns 0x00 (0000ms, 3755ms total)
T1F04 008:439 JLINK_WriteReg(R11, 0x00000000)  returns 0x00 (0000ms, 3755ms total)
T1F04 008:439 JLINK_WriteReg(R12, 0x00000000)  returns 0x00 (0000ms, 3755ms total)
T1F04 008:439 JLINK_WriteReg(R13, 0x20000800)  returns 0x00 (0000ms, 3755ms total)
T1F04 008:439 JLINK_WriteReg(R14, 0x20000001)  returns 0x00 (0000ms, 3755ms total)
T1F04 008:439 JLINK_WriteReg(R15, 0x200000B6)  returns 0x00 (0001ms, 3755ms total)
T1F04 008:440 JLINK_WriteReg(XPSR, 0x01000000)  returns 0x00 (0000ms, 3756ms total)
T1F04 008:440 JLINK_WriteReg(MSP, 0x20000800)  returns 0x00 (0000ms, 3756ms total)
T1F04 008:440 JLINK_WriteReg(PSP, 0x20000800)  returns 0x00 (0000ms, 3756ms total)
T1F04 008:440 JLINK_WriteReg(CFBP, 0x00000000)  returns 0x00 (0000ms, 3756ms total)
T1F04 008:440 JLINK_SetBPEx(Addr = 0x20000000, Type = 0xFFFFFFF2)  returns 0x0000000F (0000ms, 3756ms total)
T1F04 008:440 JLINK_Go() -- CPU_WriteMem(4 bytes @ 0xE0002008) -- CPU_WriteMem(4 bytes @ 0xE000200C) -- CPU_WriteMem(4 bytes @ 0xE0002010) -- CPU_WriteMem(4 bytes @ 0xE0002014) -- CPU_WriteMem(4 bytes @ 0xE0002018) -- CPU_WriteMem(4 bytes @ 0xE000201C) (0010ms, 3756ms total)
T1F04 008:450 JLINK_IsHalted()  returns FALSE (0001ms, 3766ms total)
T1F04 009:226 JLINK_IsHalted() -- CPU_ReadMem(2 bytes @ 0x20000000)  returns TRUE (0005ms, 3766ms total)
T1F04 009:231 JLINK_ReadReg(R15)  returns 0x20000000 (0000ms, 3766ms total)
T1F04 009:231 JLINK_ClrBPEx(BPHandle = 0x0000000F)  returns 0x00 (0000ms, 3766ms total)
T1F04 009:231 JLINK_ReadReg(R0)  returns 0x00000000 (0001ms, 3766ms total)
T1F04 009:233 JLINK_WriteReg(R0, 0x00000001)  returns 0x00 (0000ms, 3767ms total)
T1F04 009:233 JLINK_WriteReg(R1, 0x00000800)  returns 0x00 (0000ms, 3767ms total)
T1F04 009:233 JLINK_WriteReg(R2, 0x000000FF)  returns 0x00 (0000ms, 3767ms total)
T1F04 009:233 JLINK_WriteReg(R3, 0x00000000)  returns 0x00 (0001ms, 3767ms total)
T1F04 009:234 JLINK_WriteReg(R4, 0x00000000)  returns 0x00 (0000ms, 3768ms total)
T1F04 009:234 JLINK_WriteReg(R5, 0x00000000)  returns 0x00 (0000ms, 3768ms total)
T1F04 009:234 JLINK_WriteReg(R6, 0x00000000)  returns 0x00 (0000ms, 3768ms total)
T1F04 009:234 JLINK_WriteReg(R7, 0x00000000)  returns 0x00 (0000ms, 3768ms total)
T1F04 009:234 JLINK_WriteReg(R8, 0x00000000)  returns 0x00 (0000ms, 3768ms total)
T1F04 009:234 JLINK_WriteReg(R9, 0x20000160)  returns 0x00 (0000ms, 3768ms total)
T1F04 009:234 JLINK_WriteReg(R10, 0x00000000)  returns 0x00 (0000ms, 3768ms total)
T1F04 009:234 JLINK_WriteReg(R11, 0x00000000)  returns 0x00 (0000ms, 3768ms total)
T1F04 009:234 JLINK_WriteReg(R12, 0x00000000)  returns 0x00 (0001ms, 3768ms total)
T1F04 009:235 JLINK_WriteReg(R13, 0x20000800)  returns 0x00 (0000ms, 3769ms total)
T1F04 009:235 JLINK_WriteReg(R14, 0x20000001)  returns 0x00 (0000ms, 3769ms total)
T1F04 009:235 JLINK_WriteReg(R15, 0x2000006A)  returns 0x00 (0000ms, 3769ms total)
T1F04 009:235 JLINK_WriteReg(XPSR, 0x01000000)  returns 0x00 (0000ms, 3769ms total)
T1F04 009:235 JLINK_WriteReg(MSP, 0x20000800)  returns 0x00 (0000ms, 3769ms total)
T1F04 009:235 JLINK_WriteReg(PSP, 0x20000800)  returns 0x00 (0000ms, 3769ms total)
T1F04 009:235 JLINK_WriteReg(CFBP, 0x00000000)  returns 0x00 (0000ms, 3769ms total)
T1F04 009:236 JLINK_SetBPEx(Addr = 0x20000000, Type = 0xFFFFFFF2)  returns 0x00000010 (0000ms, 3770ms total)
T1F04 009:236 JLINK_Go() -- CPU_WriteMem(4 bytes @ 0xE0002008) -- CPU_WriteMem(4 bytes @ 0xE000200C) -- CPU_WriteMem(4 bytes @ 0xE0002010) -- CPU_WriteMem(4 bytes @ 0xE0002014) -- CPU_WriteMem(4 bytes @ 0xE0002018) -- CPU_WriteMem(4 bytes @ 0xE000201C) (0007ms, 3770ms total)
T1F04 009:243 JLINK_IsHalted() -- CPU_ReadMem(2 bytes @ 0x20000000)  returns TRUE (0005ms, 3777ms total)
T1F04 009:248 JLINK_ReadReg(R15)  returns 0x20000000 (0001ms, 3777ms total)
T1F04 009:249 JLINK_ClrBPEx(BPHandle = 0x00000010)  returns 0x00 (0000ms, 3778ms total)
T1F04 009:249 JLINK_ReadReg(R0)  returns 0x00000000 (0000ms, 3778ms total)
T1F04 009:332 JLINK_WriteMem(0x20000000, 0x0164 Bytes, ...) -- Data:  00 BE 0A E0 0D 78 2D 06 68 40 08 24 40 00 00 D3 ... -- CPU_WriteMem(356 bytes @ 0x20000000)  returns 0x164 (0005ms, 3778ms total)
T1F04 009:337 JLINK_WriteReg(R0, 0x08000000)  returns 0x00 (0001ms, 3783ms total)
T1F04 009:338 JLINK_WriteReg(R1, 0x007A1200)  returns 0x00 (0000ms, 3784ms total)
T1F04 009:338 JLINK_WriteReg(R2, 0x00000002)  returns 0x00 (0000ms, 3784ms total)
T1F04 009:338 JLINK_WriteReg(R3, 0x00000000)  returns 0x00 (0000ms, 3784ms total)
T1F04 009:338 JLINK_WriteReg(R4, 0x00000000)  returns 0x00 (0001ms, 3784ms total)
T1F04 009:339 JLINK_WriteReg(R5, 0x00000000)  returns 0x00 (0000ms, 3785ms total)
T1F04 009:339 JLINK_WriteReg(R6, 0x00000000)  returns 0x00 (0000ms, 3785ms total)
T1F04 009:339 JLINK_WriteReg(R7, 0x00000000)  returns 0x00 (0000ms, 3785ms total)
T1F04 009:339 JLINK_WriteReg(R8, 0x00000000)  returns 0x00 (0001ms, 3785ms total)
